!Agilent Technologies,E5071C,MY46107720,A.11.31
!Date: Mon Mar 29 07:25:18 2021
!Data & Calibration Information:
!Freq	S33:SOLT4(ON)	S43:SOLT4(ON)	S34:SOLT4(ON)	S44:SOLT4(ON)
!PortZ  Port3:50+j0    Port4:50+j0
!Above PortZ is port z conversion or system Z0 setting when saving the data.
!When reading, reference impedance value at option line is always used.
# Hz S dB R 50
4542447	6.017370e-003	-1.302786e+000	-7.345019e+001	7.764722e+001	-7.396207e+001	9.244941e+001	1.144051e-005	-1.291430e+000
4542614	6.058981e-003	-1.306690e+000	-7.206059e+001	7.542221e+001	-7.251709e+001	9.122762e+001	-6.309770e-004	-1.290807e+000
4542780	5.584916e-003	-1.303834e+000	-7.353337e+001	9.013213e+001	-7.399367e+001	8.505158e+001	7.874293e-005	-1.287540e+000
4542947	5.334673e-003	-1.304917e+000	-7.448814e+001	8.066692e+001	-7.195042e+001	8.580676e+001	1.179100e-004	-1.288032e+000
4543114	5.292754e-003	-1.303827e+000	-7.352578e+001	9.067146e+001	-7.349019e+001	8.376868e+001	-6.055255e-005	-1.290443e+000
4543280	5.757306e-003	-1.302487e+000	-7.435899e+001	8.861000e+001	-7.352643e+001	9.403532e+001	-9.856113e-006	-1.293097e+000
4543447	5.922583e-003	-1.303341e+000	-7.397999e+001	9.186340e+001	-7.250273e+001	9.040214e+001	-2.681305e-004	-1.289836e+000
4543614	5.160244e-003	-1.301809e+000	-7.317312e+001	9.169886e+001	-7.205780e+001	8.529952e+001	2.150210e-004	-1.288476e+000
4543781	5.582548e-003	-1.303427e+000	-7.234135e+001	9.230285e+001	-7.283345e+001	9.011582e+001	-3.772499e-004	-1.289538e+000
4543947	5.430364e-003	-1.302910e+000	-7.275577e+001	8.502606e+001	-7.382273e+001	9.052238e+001	-1.860534e-004	-1.292509e+000
4544114	6.007967e-003	-1.303615e+000	-7.172895e+001	8.388452e+001	-7.347429e+001	9.442590e+001	7.070605e-004	-1.287969e+000
4544281	5.486462e-003	-1.303367e+000	-7.250899e+001	8.896820e+001	-7.403784e+001	9.500690e+001	-3.856403e-004	-1.292465e+000
4544447	5.750802e-003	-1.307178e+000	-7.375959e+001	8.857665e+001	-7.430169e+001	9.152807e+001	-9.229265e-005	-1.293576e+000
4544614	5.712615e-003	-1.303656e+000	-7.332836e+001	8.324289e+001	-7.284413e+001	8.653002e+001	1.044971e-004	-1.292698e+000
4544781	5.875364e-003	-1.303331e+000	-7.347928e+001	7.735724e+001	-7.619098e+001	1.002234e+002	2.577540e-004	-1.291002e+000
4544947	5.351445e-003	-1.306928e+000	-7.432864e+001	9.097634e+001	-7.412039e+001	9.188156e+001	1.781667e-004	-1.290234e+000
4545114	5.258898e-003	-1.306815e+000	-7.279982e+001	8.933066e+001	-7.278488e+001	9.492763e+001	2.640411e-004	-1.291030e+000
4545281	5.663535e-003	-1.305305e+000	-7.370742e+001	8.182667e+001	-7.223799e+001	9.228758e+001	-5.384154e-005	-1.289895e+000
4545448	5.117106e-003	-1.306504e+000	-7.256325e+001	8.650197e+001	-7.484543e+001	8.886327e+001	1.760988e-004	-1.297060e+000
4545614	5.294530e-003	-1.306756e+000	-7.326330e+001	9.071330e+001	-7.566467e+001	8.396783e+001	2.860494e-004	-1.292304e+000
4545781	5.848928e-003	-1.302717e+000	-7.332623e+001	8.700438e+001	-7.337278e+001	9.216916e+001	4.839603e-004	-1.291017e+000
4545948	4.934805e-003	-1.308614e+000	-7.246074e+001	9.367062e+001	-7.370372e+001	9.261306e+001	3.079837e-004	-1.296379e+000
4546114	5.415796e-003	-1.305956e+000	-7.252253e+001	8.436647e+001	-7.478289e+001	8.207711e+001	4.048821e-004	-1.288578e+000
4546281	5.641069e-003	-1.306576e+000	-7.481331e+001	8.726708e+001	-7.509694e+001	9.612390e+001	-2.658421e-004	-1.290116e+000
4546448	5.552130e-003	-1.305011e+000	-7.361159e+001	8.498446e+001	-7.132569e+001	9.293835e+001	2.994340e-004	-1.294075e+000
4546614	5.322012e-003	-1.306052e+000	-7.244140e+001	9.107923e+001	-7.458877e+001	8.396968e+001	1.365727e-004	-1.290597e+000
4546781	4.983591e-003	-1.306489e+000	-7.379017e+001	8.377379e+001	-7.260753e+001	8.776204e+001	3.733435e-004	-1.291776e+000
4546948	4.936663e-003	-1.304860e+000	-7.223641e+001	9.010178e+001	-7.423932e+001	8.207905e+001	4.788106e-004	-1.291076e+000
4547114	4.718855e-003	-1.304716e+000	-7.445437e+001	8.558914e+001	-7.379187e+001	8.438385e+001	-1.140405e-004	-1.288502e+000
4547281	5.147081e-003	-1.306083e+000	-7.148388e+001	8.643089e+001	-7.212939e+001	8.194891e+001	-9.126335e-007	-1.290107e+000
4547448	5.367643e-003	-1.303889e+000	-7.337478e+001	8.610526e+001	-7.268163e+001	8.595714e+001	-5.627550e-004	-1.289157e+000
4547615	5.278290e-003	-1.303688e+000	-7.287764e+001	9.516057e+001	-7.324018e+001	8.373442e+001	-1.427358e-004	-1.289168e+000
4547781	5.013034e-003	-1.305297e+000	-7.373526e+001	9.067570e+001	-7.180437e+001	9.429128e+001	-4.717407e-004	-1.294305e+000
4547948	4.922982e-003	-1.305197e+000	-7.340442e+001	8.913121e+001	-7.372863e+001	9.295879e+001	-1.788646e-004	-1.292589e+000
4548115	4.775375e-003	-1.304323e+000	-7.461638e+001	9.422293e+001	-7.284084e+001	8.816486e+001	-1.564651e-004	-1.286694e+000
4548281	4.182673e-003	-1.308048e+000	-7.319839e+001	9.080940e+001	-7.436267e+001	9.139710e+001	-1.321091e-004	-1.287093e+000
4548448	4.393773e-003	-1.304739e+000	-7.278625e+001	8.273624e+001	-7.228317e+001	8.778854e+001	2.052074e-004	-1.290126e+000
4548615	5.330311e-003	-1.305821e+000	-7.322554e+001	8.624940e+001	-7.140851e+001	9.367315e+001	6.073529e-004	-1.290810e+000
4548781	4.824133e-003	-1.304945e+000	-7.372052e+001	9.499918e+001	-7.358500e+001	8.845159e+001	3.768985e-004	-1.292790e+000
4548948	5.247324e-003	-1.307347e+000	-7.344338e+001	8.585814e+001	-7.261250e+001	8.694741e+001	-3.747109e-004	-1.291251e+000
4549115	5.487430e-003	-1.307864e+000	-7.348864e+001	8.819878e+001	-7.318766e+001	8.990969e+001	-2.180282e-004	-1.291588e+000
4549281	5.682894e-003	-1.307588e+000	-7.253708e+001	8.469235e+001	-7.344628e+001	8.921129e+001	-2.928522e-004	-1.290702e+000
4549448	5.135767e-003	-1.306440e+000	-7.380522e+001	8.754405e+001	-7.401799e+001	9.097938e+001	-5.901157e-004	-1.292172e+000
4549615	5.809188e-003	-1.304567e+000	-7.398793e+001	8.362276e+001	-7.302678e+001	9.692419e+001	-5.012965e-004	-1.287214e+000
4549782	6.242379e-003	-1.307488e+000	-7.357028e+001	8.505566e+001	-7.430948e+001	8.584038e+001	-1.459484e-004	-1.289641e+000
4549948	5.632147e-003	-1.304797e+000	-7.393350e+001	8.518232e+001	-7.360142e+001	8.943959e+001	-3.285013e-005	-1.289512e+000
4550115	5.721524e-003	-1.307374e+000	-7.320338e+001	9.388402e+001	-7.409313e+001	8.915819e+001	-6.816170e-004	-1.290065e+000
4550282	5.905322e-003	-1.307867e+000	-7.353779e+001	8.885454e+001	-7.453599e+001	8.088492e+001	-3.305848e-005	-1.288795e+000
4550448	5.488573e-003	-1.304131e+000	-7.424478e+001	1.025864e+002	-7.331032e+001	8.837986e+001	-1.158268e-004	-1.291167e+000
4550615	6.033453e-003	-1.305625e+000	-7.364320e+001	9.405492e+001	-7.453890e+001	8.451218e+001	-4.103045e-004	-1.292034e+000
4550782	5.723778e-003	-1.303641e+000	-7.350086e+001	9.302388e+001	-7.428342e+001	8.680158e+001	-4.154260e-004	-1.290047e+000
4550948	5.657775e-003	-1.304271e+000	-7.494506e+001	8.595068e+001	-7.358109e+001	8.605986e+001	-4.752205e-004	-1.291494e+000
4551115	5.956521e-003	-1.307370e+000	-7.313063e+001	8.455130e+001	-7.248902e+001	8.331835e+001	-1.137041e-004	-1.293106e+000
4551282	6.119025e-003	-1.303085e+000	-7.325486e+001	8.547913e+001	-7.427370e+001	1.058480e+002	-1.320923e-004	-1.290826e+000
4551449	5.882431e-003	-1.306285e+000	-7.364852e+001	8.591397e+001	-7.371547e+001	8.841536e+001	-5.008569e-004	-1.290546e+000
4551615	5.457878e-003	-1.305563e+000	-7.348568e+001	8.514547e+001	-7.282794e+001	8.670601e+001	-3.309472e-004	-1.292617e+000
4551782	5.937559e-003	-1.306942e+000	-7.327860e+001	8.416340e+001	-7.340218e+001	8.841320e+001	-6.004697e-004	-1.290524e+000
4551949	6.361927e-003	-1.300963e+000	-7.510910e+001	7.912192e+001	-7.358477e+001	9.697559e+001	-7.100478e-004	-1.287493e+000
4552115	6.092336e-003	-1.305115e+000	-7.328566e+001	8.553276e+001	-7.200038e+001	8.646505e+001	-5.657926e-004	-1.291546e+000
4552282	5.762441e-003	-1.302318e+000	-7.292911e+001	8.571155e+001	-7.308622e+001	8.291471e+001	-6.956710e-004	-1.291768e+000
4552449	5.968317e-003	-1.308087e+000	-7.357069e+001	8.699148e+001	-7.313311e+001	7.724439e+001	-8.948899e-004	-1.295120e+000
4552615	5.339979e-003	-1.306767e+000	-7.349375e+001	9.038551e+001	-7.268209e+001	8.104766e+001	-1.944835e-004	-1.289399e+000
4552782	5.456697e-003	-1.305805e+000	-7.216240e+001	9.648346e+001	-7.325769e+001	8.655771e+001	-8.232898e-004	-1.288164e+000
4552949	5.522620e-003	-1.305597e+000	-7.303520e+001	8.858204e+001	-7.370528e+001	9.286034e+001	-9.429026e-004	-1.294356e+000
4553115	5.198199e-003	-1.306503e+000	-7.369031e+001	8.548635e+001	-7.301216e+001	8.707823e+001	-5.876613e-004	-1.293050e+000
4553282	5.612996e-003	-1.308562e+000	-7.194227e+001	8.188467e+001	-7.443001e+001	8.632445e+001	-4.769887e-004	-1.294307e+000
4553449	5.205663e-003	-1.307878e+000	-7.286955e+001	9.296650e+001	-7.410834e+001	9.620603e+001	-5.423107e-005	-1.291765e+000
4553616	5.626721e-003	-1.306541e+000	-7.430195e+001	9.131886e+001	-7.420204e+001	9.062485e+001	-3.832825e-004	-1.296772e+000
4553782	5.152145e-003	-1.304953e+000	-7.337427e+001	8.950186e+001	-7.425002e+001	9.160567e+001	-1.904136e-004	-1.294705e+000
4553949	5.385727e-003	-1.308446e+000	-7.381109e+001	8.981873e+001	-7.454876e+001	7.972286e+001	-3.814116e-004	-1.291383e+000
4554116	5.371738e-003	-1.309509e+000	-7.295683e+001	9.046288e+001	-7.485167e+001	9.334196e+001	-4.797765e-004	-1.298696e+000
4554282	4.928554e-003	-1.307380e+000	-7.328920e+001	7.817320e+001	-7.361325e+001	8.606122e+001	-8.925899e-005	-1.295147e+000
4554449	5.145723e-003	-1.309184e+000	-7.437655e+001	8.911572e+001	-7.318880e+001	9.126896e+001	-2.787062e-004	-1.291847e+000
4554616	5.164674e-003	-1.307467e+000	-7.282436e+001	9.224501e+001	-7.269750e+001	9.454858e+001	-3.602890e-004	-1.291526e+000
4554782	5.034292e-003	-1.305901e+000	-7.396413e+001	8.593895e+001	-7.480337e+001	8.446582e+001	-3.815918e-004	-1.294095e+000
4554949	5.454840e-003	-1.305635e+000	-7.219685e+001	8.268902e+001	-7.324550e+001	8.647537e+001	-3.486835e-004	-1.295298e+000
4555116	5.868759e-003	-1.310760e+000	-7.575725e+001	8.282543e+001	-7.487215e+001	9.567831e+001	-4.700283e-005	-1.294159e+000
4555282	4.971525e-003	-1.307694e+000	-7.478879e+001	9.305704e+001	-7.297100e+001	9.326105e+001	-2.071734e-004	-1.291352e+000
4555449	5.177219e-003	-1.304883e+000	-7.230570e+001	9.705280e+001	-7.268093e+001	9.210290e+001	-2.457898e-004	-1.292415e+000
4555616	5.413268e-003	-1.305701e+000	-7.463151e+001	9.294806e+001	-7.217133e+001	9.004665e+001	9.098319e-005	-1.292623e+000
4555783	5.375241e-003	-1.308779e+000	-7.531321e+001	8.442001e+001	-7.326606e+001	8.059044e+001	-2.476548e-004	-1.292516e+000
4555949	5.214672e-003	-1.307162e+000	-7.318279e+001	9.663212e+001	-7.303459e+001	9.219922e+001	6.471376e-006	-1.296524e+000
4556116	4.827776e-003	-1.307276e+000	-7.362255e+001	7.963649e+001	-7.420454e+001	7.796663e+001	-4.387946e-004	-1.296028e+000
4556283	5.373813e-003	-1.308936e+000	-7.302290e+001	9.100158e+001	-7.299888e+001	9.220240e+001	-1.608690e-004	-1.293976e+000
4556449	5.342609e-003	-1.304956e+000	-7.338817e+001	8.349613e+001	-7.403970e+001	8.812679e+001	-2.892416e-004	-1.298192e+000
4556616	4.588988e-003	-1.308019e+000	-7.305476e+001	8.344704e+001	-7.423959e+001	8.379114e+001	-9.015776e-005	-1.292092e+000
4556783	5.437872e-003	-1.306053e+000	-7.359481e+001	8.705521e+001	-7.331270e+001	9.270596e+001	-8.062040e-005	-1.294461e+000
4556949	5.051862e-003	-1.308190e+000	-7.303996e+001	8.735416e+001	-7.346190e+001	9.640579e+001	-2.293843e-004	-1.293802e+000
4557116	5.322621e-003	-1.306930e+000	-7.222748e+001	9.038382e+001	-7.246661e+001	9.062158e+001	-5.593588e-004	-1.295498e+000
4557283	4.820715e-003	-1.306757e+000	-7.449850e+001	8.230124e+001	-7.355243e+001	9.778684e+001	-4.473426e-004	-1.296437e+000
4557450	5.413209e-003	-1.309182e+000	-7.237937e+001	8.546340e+001	-7.138753e+001	8.018498e+001	-7.889979e-005	-1.292698e+000
4557616	4.921413e-003	-1.310555e+000	-7.264442e+001	9.414905e+001	-7.310563e+001	8.841877e+001	-2.002703e-005	-1.298944e+000
4557783	5.119853e-003	-1.308780e+000	-7.404203e+001	8.498259e+001	-7.204304e+001	9.121004e+001	2.680722e-005	-1.290652e+000
4557950	5.202848e-003	-1.307301e+000	-7.441241e+001	8.278401e+001	-7.291267e+001	9.304473e+001	9.370710e-005	-1.294515e+000
4558116	5.196850e-003	-1.308850e+000	-7.401088e+001	8.537770e+001	-7.484570e+001	9.077361e+001	-1.200620e-004	-1.296647e+000
4558283	5.732413e-003	-1.306614e+000	-7.344424e+001	9.545248e+001	-7.321522e+001	8.298405e+001	-1.253477e-004	-1.293560e+000
4558450	5.533474e-003	-1.305247e+000	-7.321373e+001	9.178861e+001	-7.405814e+001	8.516580e+001	-2.671119e-004	-1.296584e+000
4558616	4.629914e-003	-1.306167e+000	-7.347164e+001	8.630045e+001	-7.549233e+001	9.053436e+001	1.507822e-004	-1.297407e+000
4558783	5.615356e-003	-1.311188e+000	-7.301103e+001	8.673791e+001	-7.435183e+001	9.157998e+001	-1.925730e-004	-1.296995e+000
4558950	5.790149e-003	-1.306904e+000	-7.342121e+001	8.466014e+001	-7.439377e+001	8.901993e+001	-3.486242e-004	-1.292258e+000
4559116	5.243318e-003	-1.307458e+000	-7.303720e+001	9.053498e+001	-7.419708e+001	8.172240e+001	3.387254e-004	-1.296470e+000
4559283	5.601143e-003	-1.306703e+000	-7.323713e+001	8.465681e+001	-7.340863e+001	9.057817e+001	-3.649857e-004	-1.292812e+000
4559450	5.126907e-003	-1.308884e+000	-7.248394e+001	9.820511e+001	-7.321105e+001	9.120780e+001	-1.657620e-004	-1.294496e+000
4559617	5.175746e-003	-1.307983e+000	-7.365447e+001	8.359089e+001	-7.387270e+001	9.106833e+001	-4.034265e-004	-1.294352e+000
4559783	5.287034e-003	-1.308300e+000	-7.488146e+001	9.194198e+001	-7.337546e+001	8.774156e+001	-4.207338e-004	-1.291163e+000
4559950	5.337441e-003	-1.304721e+000	-7.198071e+001	9.128364e+001	-7.335594e+001	8.676232e+001	-6.407488e-004	-1.294185e+000
4560117	5.806806e-003	-1.306583e+000	-7.482291e+001	9.270717e+001	-7.359129e+001	8.475587e+001	-5.348771e-004	-1.294361e+000
4560283	6.202487e-003	-1.308605e+000	-7.252224e+001	8.981547e+001	-7.300432e+001	9.178519e+001	-9.927282e-004	-1.294880e+000
4560450	5.969967e-003	-1.304911e+000	-7.261759e+001	9.074067e+001	-7.392349e+001	8.751794e+001	-5.396597e-004	-1.292728e+000
4560617	5.314826e-003	-1.309940e+000	-7.323229e+001	8.391189e+001	-7.368068e+001	8.629156e+001	2.946575e-004	-1.293464e+000
4560783	5.651698e-003	-1.308927e+000	-7.296260e+001	8.771229e+001	-7.439963e+001	7.726427e+001	-9.561972e-005	-1.290988e+000
4560950	5.336764e-003	-1.305777e+000	-7.294478e+001	9.516784e+001	-7.213922e+001	9.164209e+001	1.632132e-004	-1.293112e+000
4561117	5.516275e-003	-1.308466e+000	-7.337604e+001	8.241337e+001	-7.204464e+001	9.439644e+001	-7.217628e-004	-1.291716e+000
4561283	6.175029e-003	-1.306630e+000	-7.442993e+001	7.768033e+001	-7.328802e+001	9.013375e+001	-3.798365e-004	-1.294523e+000
4561450	5.323045e-003	-1.306989e+000	-7.212911e+001	8.431576e+001	-7.435154e+001	9.209530e+001	-2.750719e-004	-1.293825e+000
4561617	5.771080e-003	-1.306542e+000	-7.466627e+001	9.338028e+001	-7.321768e+001	9.151713e+001	-5.279176e-004	-1.290669e+000
4561784	6.014131e-003	-1.309755e+000	-7.418276e+001	8.677106e+001	-7.285107e+001	9.159212e+001	-8.915368e-005	-1.291711e+000
4561950	5.733078e-003	-1.311078e+000	-7.438569e+001	8.934165e+001	-7.308790e+001	8.358696e+001	-1.984296e-004	-1.294404e+000
4562117	6.188869e-003	-1.308714e+000	-7.397427e+001	9.378333e+001	-7.271520e+001	9.606707e+001	5.000698e-004	-1.293138e+000
4562284	5.666079e-003	-1.306024e+000	-7.415720e+001	8.495177e+001	-7.213318e+001	8.845729e+001	-4.529941e-004	-1.293843e+000
4562450	5.783942e-003	-1.306623e+000	-7.489351e+001	8.887237e+001	-7.406310e+001	8.348673e+001	2.353969e-004	-1.293151e+000
4562617	5.684389e-003	-1.309772e+000	-7.295320e+001	9.975853e+001	-7.177967e+001	8.496214e+001	-7.440311e-005	-1.290576e+000
4562784	5.811056e-003	-1.308100e+000	-7.278416e+001	9.398490e+001	-7.348594e+001	8.536192e+001	4.817654e-004	-1.292259e+000
4562950	5.154694e-003	-1.304312e+000	-7.483283e+001	9.862419e+001	-7.342641e+001	8.972753e+001	4.601549e-004	-1.292559e+000
4563117	5.916415e-003	-1.308030e+000	-7.433610e+001	9.365692e+001	-7.373889e+001	9.231250e+001	4.043317e-004	-1.290608e+000
4563284	4.832485e-003	-1.310284e+000	-7.247394e+001	9.272048e+001	-7.348884e+001	8.186242e+001	4.567584e-004	-1.291261e+000
4563451	5.151595e-003	-1.308929e+000	-7.274661e+001	8.203860e+001	-7.350741e+001	8.850033e+001	6.624635e-005	-1.294240e+000
4563617	5.291231e-003	-1.308520e+000	-7.368801e+001	8.631842e+001	-7.318229e+001	9.676570e+001	-3.813102e-004	-1.292841e+000
4563784	5.399818e-003	-1.307979e+000	-7.272065e+001	9.434615e+001	-7.194410e+001	9.339824e+001	8.063966e-005	-1.294170e+000
4563951	5.332728e-003	-1.303186e+000	-7.473300e+001	8.989968e+001	-7.236048e+001	8.216638e+001	5.030050e-004	-1.289396e+000
4564117	5.734606e-003	-1.309317e+000	-7.429961e+001	8.561316e+001	-7.254378e+001	8.426240e+001	-9.834918e-005	-1.294649e+000
4564284	5.475204e-003	-1.305754e+000	-7.284932e+001	8.362266e+001	-7.381217e+001	1.004094e+002	5.243862e-004	-1.295109e+000
4564451	5.000870e-003	-1.306833e+000	-7.383831e+001	8.828738e+001	-7.214262e+001	9.274841e+001	4.092616e-004	-1.293714e+000
4564617	5.498095e-003	-1.304595e+000	-7.210969e+001	9.671184e+001	-7.299570e+001	9.613602e+001	9.711131e-005	-1.294472e+000
4564784	5.495255e-003	-1.305451e+000	-7.352753e+001	7.923669e+001	-7.305383e+001	9.562384e+001	-5.068815e-005	-1.294721e+000
4564951	5.659705e-003	-1.305800e+000	-7.303255e+001	8.786779e+001	-7.337640e+001	8.994711e+001	8.268636e-004	-1.291714e+000
4565117	5.206948e-003	-1.307958e+000	-7.417869e+001	7.973482e+001	-7.245497e+001	8.276553e+001	-4.126814e-004	-1.293977e+000
4565284	5.253755e-003	-1.307634e+000	-7.232219e+001	8.809179e+001	-7.325516e+001	8.629162e+001	1.334283e-004	-1.298879e+000
4565451	4.828821e-003	-1.304421e+000	-7.297717e+001	9.483639e+001	-7.206556e+001	9.001342e+001	2.646791e-004	-1.297810e+000
4565618	5.089964e-003	-1.309084e+000	-7.261982e+001	8.945862e+001	-7.257201e+001	9.255158e+001	-1.731080e-004	-1.293920e+000
4565784	5.324864e-003	-1.306874e+000	-7.409158e+001	8.107079e+001	-7.375632e+001	8.270991e+001	2.623765e-004	-1.295940e+000
4565951	5.224032e-003	-1.308248e+000	-7.394281e+001	9.108647e+001	-7.259826e+001	9.086352e+001	-3.330499e-004	-1.296427e+000
4566118	5.836273e-003	-1.309689e+000	-7.406881e+001	9.021664e+001	-7.314215e+001	8.889646e+001	-4.790995e-004	-1.299248e+000
4566284	5.330358e-003	-1.310053e+000	-7.473943e+001	7.877603e+001	-7.284548e+001	8.437022e+001	2.312380e-004	-1.297044e+000
4566451	5.436563e-003	-1.305374e+000	-7.264349e+001	8.712501e+001	-7.349608e+001	9.033768e+001	3.471950e-004	-1.299952e+000
4566618	4.763630e-003	-1.306855e+000	-7.219635e+001	8.765887e+001	-7.430484e+001	8.953297e+001	6.149378e-005	-1.301827e+000
4566784	4.898909e-003	-1.308847e+000	-7.372840e+001	9.306308e+001	-7.438739e+001	9.458478e+001	1.791109e-004	-1.297560e+000
4566951	5.158167e-003	-1.310593e+000	-7.336147e+001	9.739240e+001	-7.253612e+001	8.630049e+001	-1.603614e-004	-1.297471e+000
4567118	5.295426e-003	-1.312935e+000	-7.345659e+001	8.482822e+001	-7.249790e+001	8.786362e+001	1.411361e-004	-1.298103e+000
4567284	5.386576e-003	-1.306716e+000	-7.330172e+001	8.667312e+001	-7.270129e+001	9.017168e+001	-5.577974e-004	-1.300190e+000
4567451	5.656561e-003	-1.311923e+000	-7.168181e+001	9.015103e+001	-7.283672e+001	8.847623e+001	-4.566782e-004	-1.300580e+000
4567618	5.613536e-003	-1.309478e+000	-7.362454e+001	9.279795e+001	-7.263168e+001	9.588481e+001	-3.537650e-004	-1.302649e+000
4567785	5.541926e-003	-1.308683e+000	-7.279553e+001	8.036178e+001	-7.363828e+001	8.847684e+001	-6.890791e-004	-1.302410e+000
4567951	5.384705e-003	-1.311633e+000	-7.386751e+001	8.747794e+001	-7.280674e+001	8.813741e+001	-7.515931e-004	-1.298318e+000
4568118	4.903399e-003	-1.308690e+000	-7.213772e+001	9.423898e+001	-7.351712e+001	8.063423e+001	-8.769486e-004	-1.303681e+000
4568285	4.678755e-003	-1.313112e+000	-7.286770e+001	9.032373e+001	-7.257512e+001	8.997795e+001	-1.035018e-003	-1.297697e+000
